主频来源：X （修改为modbus）
01 06 02 03 00 0A F8 75 
01 06 02 03 00 0A F8 75 

设置目标频率（50.00）
01 06 01 0D 13 88 14 A3 
01 06 01 0D 13 88 14 A3 
设置目标频率（10.00）
01 06 01 0D 03 E8 19 4B 
01 06 01 0D 03 E8 19 4B

设置启动指令来源（面板+modbus）
01 06 02 00 00 04 89 B1 
01 06 02 00 00 04 89 B1  

设置方向给定方式（正向锁定）
01 06 02 02 00 00 29 B2
01 06 02 02 00 00 29 B2
设置方向给定方式（反向锁定）
01 06 02 02 00 01 E8 72 
01 06 02 02 00 01 E8 72 

减速停机
01 06 20 00 00 03 C2 0B 
01 06 20 00 00 03 C2 0B

反转启动
01 03 02 00 00 01 85 B2 
01 03 02 00 04 B9 87 
01 03 02 02 00 01 24 72 
01 03 02 00 01 79 84 

01 06 20 00 00 02 03 CB 
01 06 20 00 00 02 03 CB 

自由停机
01 06 20 00 00 04 83 C9 
01 06 20 00 00 04 83 C9

正转启动
01 03 02 00 00 01 85 B2 
01 03 02 00 04 B9 87 
01 03 02 02 00 01 24 72 
01 03 02 00 00 B8 44 
01 06 20 00 00 01 43 CA 
01 06 20 00 00 01 43 CA 


